T0978 000:132.859   SEGGER J-Link V6.54 Log File
T0978 000:132.978   DLL Compiled: Oct 28 2019 10:33:23
T0978 000:132.985   Logging started @ 2025-09-05 14:04
T0978 000:132.994 JLINK_SetWarnOutHandler(...)
T0978 000:133.001 - 0.009ms
T0978 000:133.011 JLINK_OpenEx(...)
T0978 000:133.826   Firmware: J-Link V9 compiled May  7 2021 16:26:12
T0978 000:142.683   Hardware: V9.70
T0978 000:142.699   S/N: 59768879
T0978 000:142.706   OEM: SEGGER
T0978 000:142.712   Feature(s): RDI, GDB, FlashDL, FlashBP, JFlash
T0978 000:143.409   TELNET listener socket opened on port 19021
T0978 000:160.491   WEBSRV Starting webserver
T0978 000:161.106   WEBSRV Webserver running on local port 19080
T0978 000:161.139 - 28.130ms returns "O.K."
T0978 000:161.171 JLINK_SetErrorOutHandler(...)
T0978 000:161.175 - 0.007ms
T0978 000:161.199 JLINK_ExecCommand("ProjectFile = "C:\Users\94980\Documents\Workbench\H743板通用资料\H743ServoProject\EtherCAT_STM32H7\MDK-ARM\JLinkSettings.ini"", ...). 
T0978 000:162.559   Ref file found at: C:\Keil_v5\ARM\Segger\JLinkDevices.ref
T0978 000:162.718   XML referenced by ref file: C:\Program Files (x86)\SEGGER\JLink_V654\JLinkDevices.xml
T0978 000:163.702   C:\Program Files (x86)\SEGGER\JLink_V654\JLinkDevices.xml evaluated successfully.
T0978 000:290.551   Device "STM32H743VI" selected.
T0978 000:290.919 - 129.732ms returns 0x00
T0978 000:290.956 JLINK_ExecCommand("Device = STM32H743VITx", ...). 
T0978 000:297.352   Device "STM32H743VI" selected.
T0978 000:297.656 - 6.698ms returns 0x00
T0978 000:297.675 JLINK_ExecCommand("DisableConnectionTimeout", ...). 
T0978 000:297.686 - 0.006ms returns 0x01
T0978 000:297.693 JLINK_GetHardwareVersion()
T0978 000:297.699 - 0.007ms returns 0x17AE8
T0978 000:297.705 JLINK_GetDLLVersion()  returns 65400
T0978 000:297.764 JLINK_GetFirmwareString(...)
T0978 000:297.770 - 0.009ms
T0978 000:299.543 JLINK_GetDLLVersion()  returns 65400
T0978 000:299.558 JLINK_GetCompileDateTime()
T0978 000:299.563 - 0.007ms
T0978 000:300.138 JLINK_GetFirmwareString(...)
T0978 000:300.149 - 0.014ms
T0978 000:300.726 JLINK_GetHardwareVersion()
T0978 000:300.737 - 0.013ms returns 0x17AE8
T0978 000:302.693 JLINK_TIF_Select(JLINKARM_TIF_SWD)
T0978 000:303.181 - 0.508ms returns 0x00
T0978 000:303.207 JLINK_SetSpeed(5000)
T0978 000:303.273 - 0.070ms
T0978 000:303.282 JLINK_GetId()
T0978 000:304.244   Found SW-DP with ID 0x6BA02477
T0978 000:319.368   Found SW-DP with ID 0x6BA02477
T0978 000:324.862   Scanning AP map to find all available APs
T0978 000:332.398   AP[3]: Stopped AP scan as end of AP map has been reached
T0978 000:339.739   AP[0]: AHB-AP (IDR: 0x84770001)
T0978 000:343.259   AP[1]: AHB-AP (IDR: 0x84770001)
T0978 000:344.913   AP[2]: APB-AP (IDR: 0x54770002)
T0978 000:346.705   Iterating through AP map to find AHB-AP to use
T0978 000:352.536   AP[0]: Core found
T0978 000:357.091   AP[0]: AHB-AP ROM base: 0xE00FE000
T0978 000:363.404   CPUID register: 0x411FC271. Implementer code: 0x41 (ARM)
T0978 000:368.509   Found Cortex-M7 r1p1, Little endian.
T0978 000:469.911    -- Max. mem block: 0x00010DE8
T0978 000:470.450    -- CPU_ReadMem(4 bytes @ 0xE000EDF0)
T0978 000:470.728    -- CPU_WriteMem(4 bytes @ 0xE000EDF0)
T0978 000:471.042    -- CPU_ReadMem(4 bytes @ 0xE0002000)
T0978 000:475.256   FPUnit: 8 code (BP) slots and 0 literal slots
T0978 000:475.277    -- CPU_ReadMem(4 bytes @ 0xE000EDFC)
T0978 000:475.567    -- CPU_WriteMem(4 bytes @ 0xE000EDFC)
T0978 000:475.798    -- CPU_ReadMem(4 bytes @ 0xE0001000)
T0978 000:476.066    -- CPU_WriteMem(4 bytes @ 0xE0001000)
T0978 000:476.291    -- CPU_ReadMem(4 bytes @ 0xE000ED88)
T0978 000:476.515    -- CPU_WriteMem(4 bytes @ 0xE000ED88)
T0978 000:476.719    -- CPU_ReadMem(4 bytes @ 0xE000ED88)
T0978 000:476.983    -- CPU_WriteMem(4 bytes @ 0xE000ED88)
T0978 000:478.808   CoreSight components:
T0978 000:479.893   ROMTbl[0] @ E00FE000
T0978 000:479.910    -- CPU_ReadMem(16 bytes @ 0xE00FE000)
T0978 000:480.161    -- CPU_ReadMem(16 bytes @ 0xE00FFFF0)
T0978 000:480.404    -- CPU_ReadMem(16 bytes @ 0xE00FFFE0)
T0978 000:481.728   ROMTbl[0][0]: E00FF000, CID: B105100D, PID: 000BB4C7 ROM Table
T0978 000:482.539   ROMTbl[1] @ E00FF000
T0978 000:482.552    -- CPU_ReadMem(16 bytes @ 0xE00FF000)
T0978 000:482.798    -- CPU_ReadMem(16 bytes @ 0xE000EFF0)
T0978 000:483.095    -- CPU_ReadMem(16 bytes @ 0xE000EFE0)
T0978 000:484.299   ROMTbl[1][0]: E000E000, CID: B105E00D, PID: 000BB00C SCS-M7
T0978 000:484.315    -- CPU_ReadMem(16 bytes @ 0xE0001FF0)
T0978 000:484.571    -- CPU_ReadMem(16 bytes @ 0xE0001FE0)
T0978 000:486.122   ROMTbl[1][1]: E0001000, CID: B105E00D, PID: 000BB002 DWT
T0978 000:486.150    -- CPU_ReadMem(16 bytes @ 0xE0002FF0)
T0978 000:486.431    -- CPU_ReadMem(16 bytes @ 0xE0002FE0)
T0978 000:491.932   ROMTbl[1][2]: E0002000, CID: B105E00D, PID: 000BB00E FPB-M7
T0978 000:491.951    -- CPU_ReadMem(16 bytes @ 0xE0000FF0)
T0978 000:492.285    -- CPU_ReadMem(16 bytes @ 0xE0000FE0)
T0978 000:498.308   ROMTbl[1][3]: E0000000, CID: B105E00D, PID: 000BB001 ITM
T0978 000:498.331    -- CPU_ReadMem(16 bytes @ 0xE00FF010)
T0978 000:498.639    -- CPU_ReadMem(16 bytes @ 0xE0041FF0)
T0978 000:498.952    -- CPU_ReadMem(16 bytes @ 0xE0041FE0)
T0978 000:502.538   ROMTbl[0][1]: E0041000, CID: B105900D, PID: 001BB975 ETM-M7
T0978 000:502.556    -- CPU_ReadMem(16 bytes @ 0xE0043FF0)
T0978 000:502.854    -- CPU_ReadMem(16 bytes @ 0xE0043FE0)
T0978 000:506.710   ROMTbl[0][2]: E0043000, CID: B105900D, PID: 004BB906 CTI
T0978 000:506.741    -- CPU_ReadMem(16 bytes @ 0xE00FE010)
T0978 000:507.038    -- CPU_ReadMem(4 bytes @ 0xE000ED78)
T0978 000:515.441   Cache: Separate I- and D-cache.
T0978 000:515.500    -- CPU_WriteMem(4 bytes @ 0xE000ED84)
T0978 000:515.805    -- CPU_ReadMem(4 bytes @ 0xE000ED80)
T0978 000:520.383   I-Cache L1: 16 KB, 256 Sets, 32 Bytes/Line, 2-Way
T0978 000:520.418    -- CPU_WriteMem(4 bytes @ 0xE000ED84)
T0978 000:520.669    -- CPU_ReadMem(4 bytes @ 0xE000ED80)
T0978 000:527.617   D-Cache L1: 16 KB, 128 Sets, 32 Bytes/Line, 4-Way
T0978 000:527.987 - 224.711ms   returns 0x6BA02477
T0978 000:528.010 JLINK_GetDLLVersion()  returns 65400
T0978 000:528.056 JLINK_CORE_GetFound()
T0978 000:528.073 - 0.019ms returns 0xE0100FF
T0978 000:528.110 JLINK_GetDebugInfo(0x100 = JLINKARM_ROM_TABLE_ADDR_INDEX)
T0978 000:528.119    -- Value=0xE00FE000
T0978 000:528.126 - 0.018ms returns 0x00
T0978 000:531.586 JLINK_GetDebugInfo(0x100 = JLINKARM_ROM_TABLE_ADDR_INDEX)
T0978 000:531.607    -- Value=0xE00FE000
T0978 000:531.617 - 0.033ms returns 0x00
T0978 000:531.625 JLINK_GetDebugInfo(0x101 = JLINKARM_DEBUG_INFO_ETM_ADDR_INDEX)
T0978 000:531.632    -- Value=0xE0041000
T0978 000:531.642 - 0.019ms returns 0x00
T0978 000:531.649 JLINK_GetDebugInfo(0x102 = JLINKARM_DEBUG_INFO_MTB_ADDR_INDEX)
T0978 000:531.655    -- Value=0x00000000
T0978 000:531.663 - 0.016ms returns 0x00
T0978 000:531.669 JLINK_GetDebugInfo(0x103 = JLINKARM_DEBUG_INFO_TPIU_ADDR_INDEX)
T0978 000:531.674    -- Value=0x00000000
T0978 000:531.681 - 0.014ms returns 0x00
T0978 000:531.688 JLINK_ReadMem (0xE0040FF0, 0x0010 Bytes, ...)
T0978 000:531.772    -- CPU_ReadMem(16 bytes @ 0xE0040FF0)
T0978 000:532.129    - Data: 00 00 00 00 00 00 00 00 00 00 00 00 00 00 00 00
T0978 000:532.146 - 0.461ms returns 0x00
T0978 000:532.156 JLINK_GetDebugInfo(0x104 = JLINKARM_DEBUG_INFO_ITM_ADDR_INDEX)
T0978 000:532.161    -- Value=0xE0000000
T0978 000:532.168 - 0.015ms returns 0x00
T0978 000:532.175 JLINK_GetDebugInfo(0x105 = JLINKARM_DEBUG_INFO_DWT_ADDR_INDEX)
T0978 000:532.180    -- Value=0xE0001000
T0978 000:532.187 - 0.014ms returns 0x00
T0978 000:532.193 JLINK_GetDebugInfo(0x106 = JLINKARM_DEBUG_INFO_FPB_ADDR_INDEX)
T0978 000:532.198    -- Value=0xE0002000
T0978 000:532.205 - 0.014ms returns 0x00
T0978 000:532.210 JLINK_GetDebugInfo(0x107 = JLINKARM_DEBUG_INFO_NVIC_ADDR_INDEX)
T0978 000:532.215    -- Value=0xE000E000
T0978 000:532.222 - 0.013ms returns 0x00
T0978 000:532.228 JLINK_GetDebugInfo(0x10C = JLINKARM_DEBUG_INFO_DBG_ADDR_INDEX)
T0978 000:532.233    -- Value=0xE000EDF0
T0978 000:532.240 - 0.014ms returns 0x00
T0978 000:532.249   JLINK_ReadMemU32(0xE000ED00, 0x0001 Items, ...)
T0978 000:532.263    -- CPU_ReadMem(4 bytes @ 0xE000ED00)
T0978 000:532.565    - Data: 71 C2 1F 41
T0978 000:532.611    - CPUID
T0978 000:532.627 - 0.380ms returns 1
T0978 000:532.636   JLINK_ReadMemU32(0xE000EDF0, 0x0001 Items, ...)
T0978 000:532.649    -- CPU_ReadMem(4 bytes @ 0xE000EDF0)
T0978 000:532.915    - Data: 01 00 01 01
T0978 000:532.926    - DHCSR
T0978 000:532.933 - 0.300ms returns 1
T0978 000:532.944 JLINK_SetResetType(JLINKARM_CM3_RESET_TYPE_NORMAL)
T0978 000:532.950 - 0.008ms returns JLINKARM_CM3_RESET_TYPE_NORMAL
T0978 000:532.957 JLINK_Reset()
T0978 000:532.978    -- CPU is running
T0978 000:532.986    -- CPU_WriteMem(4 bytes @ 0xE000EDF0)
T0978 000:533.239    -- CPU is running
T0978 000:533.250    -- CPU_WriteMem(4 bytes @ 0xE000EDFC)
T0978 000:536.494   Reset: Halt core after reset via DEMCR.VC_CORERESET.
T0978 000:540.015   Reset: Reset device via AIRCR.SYSRESETREQ.
T0978 000:540.041    -- CPU is running
T0978 000:540.053    -- CPU_WriteMem(4 bytes @ 0xE000ED0C)
T0978 000:592.918    -- CPU_ReadMem(4 bytes @ 0xE000EDF0)
T0978 000:593.141    -- CPU_ReadMem(4 bytes @ 0xE000EDF0)
T0978 000:593.350    -- CPU is running
T0978 000:593.360    -- CPU_WriteMem(4 bytes @ 0xE000EDF0)
T0978 000:593.565    -- CPU is running
T0978 000:593.574    -- CPU_WriteMem(4 bytes @ 0xE000EDFC)
T0978 000:599.163    -- CPU_ReadMem(4 bytes @ 0xE000EDF0)
T0978 000:601.165    -- CPU_WriteMem(4 bytes @ 0xE0002000)
T0978 000:601.391    -- CPU_ReadMem(4 bytes @ 0xE000EDFC)
T0978 000:601.621    -- CPU_ReadMem(4 bytes @ 0xE0001000)
T0978 000:601.840 - 68.892ms
T0978 000:601.904 JLINK_ReadReg(R15 (PC))
T0978 000:601.915 - 0.014ms returns 0x08100000
T0978 000:601.922 JLINK_ReadReg(XPSR)
T0978 000:601.928 - 0.008ms returns 0x01000000
T0978 000:601.935 JLINK_Halt()
T0978 000:601.939 - 0.007ms returns 0x00
T0978 000:601.946 JLINK_IsHalted()
T0978 000:601.952 - 0.007ms returns TRUE
T0978 000:601.959   JLINK_ReadMemU32(0xE000EDF0, 0x0001 Items, ...)
T0978 000:601.971    -- CPU_ReadMem(4 bytes @ 0xE000EDF0)
T0978 000:602.188    - Data: 03 00 03 00
T0978 000:602.200    - DHCSR
T0978 000:602.207 - 0.250ms returns 1
T0978 000:602.229   JLINK_WriteU32(0xE000EDF0, 0xA05F0003)
T0978 000:602.237    - DHCSR
T0978 000:602.260    -- CPU_WriteMem(4 bytes @ 0xE000EDF0)
T0978 000:602.477 - 0.259ms returns 0
T0978 000:602.493   JLINK_WriteU32(0xE000EDFC, 0x01000000)
T0978 000:602.502    - DEMCR
T0978 000:602.517    -- CPU_WriteMem(4 bytes @ 0xE000EDFC)
T0978 000:602.765 - 0.278ms returns 0
T0978 000:603.294 JLINK_GetHWStatus(...)
T0978 000:603.417 - 0.131ms returns 0x00
T0978 000:603.690 JLINK_GetNumBPUnits(Type = 0xFFFFFF00)
T0978 000:603.700 - 0.013ms returns 0x08
T0978 000:603.707 JLINK_GetNumBPUnits(Type = 0xF0)
T0978 000:603.712 - 0.007ms returns 0x2000
T0978 000:603.718 JLINK_GetNumWPUnits()
T0978 000:603.724 - 0.007ms returns 0x04
T0978 000:605.247 JLINK_GetSpeed()
T0978 000:605.259 - 0.031ms returns 0xFA0
T0978 000:610.663   JLINK_ReadMemU32(0xE000E004, 0x0001 Items, ...)
T0978 000:610.709    -- CPU_ReadMem(4 bytes @ 0xE000E004)
T0978 000:610.978    - Data: 04 00 00 00
T0978 000:610.991 - 0.330ms returns 1
T0978 000:610.999   JLINK_ReadMemU32(0xE000E004, 0x0001 Items, ...)
T0978 000:611.012    -- CPU_ReadMem(4 bytes @ 0xE000E004)
T0978 000:611.246    - Data: 04 00 00 00
T0978 000:611.255 - 0.259ms returns 1
T0978 000:611.264 JLINK_WriteMem(0xE0001000, 0x001C Bytes, ...)
T0978 000:611.269    - Data: 01 00 00 00 00 00 00 00 00 00 00 00 00 00 00 00 ...
T0978 000:611.593    -- CPU_WriteMem(28 bytes @ 0xE0001000)
T0978 000:611.913 - 0.659ms returns 0x1C
T0978 000:611.932 JLINK_ReadMem (0xE0001000, 0x001C Bytes, ...)
T0978 000:611.953    -- CPU_ReadMem(28 bytes @ 0xE0001000)
T0978 000:612.293    - Data: 01 00 00 40 00 00 00 00 00 00 00 00 00 00 00 00 ...
T0978 000:612.313 - 0.383ms returns 0x00
T0978 000:612.325 JLINK_ReadReg(R15 (PC))
T0978 000:612.333 - 0.018ms returns 0x08100000
T0978 000:612.347 JLINK_ReadReg(XPSR)
T0978 000:612.357 - 0.014ms returns 0x01000000
T0978 000:783.174 JLINK_SetResetType(JLINKARM_CM3_RESET_TYPE_NORMAL)
T0978 000:783.200 - 0.030ms returns JLINKARM_CM3_RESET_TYPE_NORMAL
T0978 000:783.211 JLINK_Reset()
T0978 000:783.234    -- CPU_WriteMem(4 bytes @ 0xE000EDF0)
T0978 000:783.555    -- CPU_WriteMem(4 bytes @ 0xE000EDFC)
T0978 000:788.090   Reset: Halt core after reset via DEMCR.VC_CORERESET.
T0978 000:792.324   Reset: Reset device via AIRCR.SYSRESETREQ.
T0978 000:792.349    -- CPU_WriteMem(4 bytes @ 0xE000ED0C)
T0978 000:845.229    -- CPU_ReadMem(4 bytes @ 0xE000EDF0)
T0978 000:845.474    -- CPU_ReadMem(4 bytes @ 0xE000EDF0)
T0978 000:845.689    -- CPU_WriteMem(4 bytes @ 0xE000EDF0)
T0978 000:845.914    -- CPU_WriteMem(4 bytes @ 0xE000EDFC)
T0978 000:851.959    -- CPU_ReadMem(4 bytes @ 0xE000EDF0)
T0978 000:853.989    -- CPU_WriteMem(4 bytes @ 0xE0002000)
T0978 000:854.218    -- CPU_ReadMem(4 bytes @ 0xE000EDFC)
T0978 000:854.427    -- CPU_ReadMem(4 bytes @ 0xE0001000)
T0978 000:854.636 - 71.429ms
T0978 000:854.729 JLINK_ReadReg(R15 (PC))
T0978 000:854.740 - 0.013ms returns 0x08100000
T0978 000:854.747 JLINK_ReadReg(XPSR)
T0978 000:854.753 - 0.008ms returns 0x01000000
T0978 000:854.790   JLINK_ReadMemU32(0xE0001004, 0x0001 Items, ...)
T0978 000:854.801    - Data: 00 00 00 00
T0978 000:854.809    - DWT_CYCCNT
T0978 000:854.816 - 0.028ms returns 1
T0978 001:332.203 JLINK_ReadMem (0x08100000, 0x003C Bytes, ...)
T0978 001:332.234    -- CPU_ReadMem(64 bytes @ 0x08100000)
T0978 001:332.796    -- Updating C cache (64 bytes @ 0x08100000)
T0978 001:332.807    -- Read from C cache (60 bytes @ 0x08100000)
T0978 001:332.815    - Data: 06 48 80 47 06 48 00 47 FE E7 FE E7 FE E7 FE E7 ...
T0978 001:332.821 - 0.621ms returns 0x00
T77B0 004:581.440   JLINK_SetBPEx(Addr = 0x08006AC0, Type = 0xFFFFFFF2)
T77B0 004:581.478 - 0.041ms returns 0x00000001
T77B0 004:581.488 JLINK_Go()
T77B0 004:581.796    -- CPU_WriteMem(4 bytes @ 0xE0002000)
T77B0 004:582.083    -- CPU_ReadMem(4 bytes @ 0xE0001000)
T77B0 004:582.293    -- CPU_WriteMem(4 bytes @ 0xE0002008)
T77B0 004:582.302    -- CPU_WriteMem(4 bytes @ 0xE000200C)
T77B0 004:582.308    -- CPU_WriteMem(4 bytes @ 0xE0002010)
T77B0 004:582.314    -- CPU_WriteMem(4 bytes @ 0xE0002014)
T77B0 004:582.320    -- CPU_WriteMem(4 bytes @ 0xE0002018)
T77B0 004:582.327    -- CPU_WriteMem(4 bytes @ 0xE000201C)
T77B0 004:582.333    -- CPU_WriteMem(4 bytes @ 0xE0002020)
T77B0 004:582.339    -- CPU_WriteMem(4 bytes @ 0xE0002024)
T77B0 004:583.711    -- CPU_WriteMem(4 bytes @ 0xE0001004)
T77B0 004:584.438 - 2.960ms
T77B0 004:685.238 JLINK_IsHalted()
T77B0 004:687.162 - 1.964ms returns TRUE
T77B0 004:687.288 JLINK_Halt()
T77B0 004:687.299 - 0.014ms returns 0x00
T77B0 004:687.307 JLINK_IsHalted()
T77B0 004:687.313 - 0.008ms returns TRUE
T77B0 004:687.320 JLINK_IsHalted()
T77B0 004:687.325 - 0.008ms returns TRUE
T77B0 004:687.332 JLINK_IsHalted()
T77B0 004:687.338 - 0.008ms returns TRUE
T77B0 004:687.348 JLINK_ReadReg(R15 (PC))
T77B0 004:687.357 - 0.012ms returns 0x08006AC0
T77B0 004:687.372 JLINK_ReadReg(XPSR)
T77B0 004:687.380 - 0.010ms returns 0x61000000
T77B0 004:687.402 JLINK_ClrBPEx(BPHandle = 0x00000001)
T77B0 004:687.420 - 0.021ms returns 0x00
T77B0 004:687.432   JLINK_ReadMemU32(0xE000ED30, 0x0001 Items, ...)
T77B0 004:687.447    -- CPU_ReadMem(4 bytes @ 0xE000ED30)
T77B0 004:687.694    - Data: 02 00 00 00
T77B0 004:687.706 - 0.278ms returns 1
T77B0 004:687.735   JLINK_ReadMemU32(0xE0001028, 0x0001 Items, ...)
T77B0 004:687.748    -- CPU_ReadMem(4 bytes @ 0xE0001028)
T77B0 004:687.966    - Data: 00 00 00 00
T77B0 004:688.002    - DWT_FUNC[0]
T77B0 004:688.013 - 0.281ms returns 1
T77B0 004:688.024   JLINK_ReadMemU32(0xE0001038, 0x0001 Items, ...)
T77B0 004:688.039    -- CPU_ReadMem(4 bytes @ 0xE0001038)
T77B0 004:688.280    - Data: 00 02 00 00
T77B0 004:688.301    - DWT_FUNC[1]
T77B0 004:688.323 - 0.304ms returns 1
T77B0 004:688.335   JLINK_ReadMemU32(0xE0001048, 0x0001 Items, ...)
T77B0 004:688.348    -- CPU_ReadMem(4 bytes @ 0xE0001048)
T77B0 004:688.649    - Data: 00 00 00 00
T77B0 004:688.662    - DWT_FUNC[2]
T77B0 004:688.670 - 0.338ms returns 1
T77B0 004:688.679   JLINK_ReadMemU32(0xE0001058, 0x0001 Items, ...)
T77B0 004:688.691    -- CPU_ReadMem(4 bytes @ 0xE0001058)
T77B0 004:688.940    - Data: 00 00 00 00
T77B0 004:688.969    - DWT_FUNC[3]
T77B0 004:689.001 - 0.335ms returns 1
T77B0 004:689.135 JLINK_ReadReg(R0)
T77B0 004:689.151 - 0.022ms returns 0x08006AC1
T77B0 004:689.164 JLINK_ReadReg(R1)
T77B0 004:689.175 - 0.017ms returns 0x24022290
T77B0 004:689.188 JLINK_ReadReg(R2)
T77B0 004:689.199 - 0.017ms returns 0x00000000
T77B0 004:689.212 JLINK_ReadReg(R3)
T77B0 004:689.274 - 0.066ms returns 0x080035F9
T77B0 004:689.286 JLINK_ReadReg(R4)
T77B0 004:689.293 - 0.009ms returns 0x08006F3C
T77B0 004:689.300 JLINK_ReadReg(R5)
T77B0 004:689.306 - 0.008ms returns 0x08006F3C
T77B0 004:689.312 JLINK_ReadReg(R6)
T77B0 004:689.318 - 0.008ms returns 0x00000000
T77B0 004:689.325 JLINK_ReadReg(R7)
T77B0 004:689.330 - 0.008ms returns 0x00000000
T77B0 004:689.337 JLINK_ReadReg(R8)
T77B0 004:689.343 - 0.034ms returns 0x00000000
T77B0 004:689.378 JLINK_ReadReg(R9)
T77B0 004:689.386 - 0.011ms returns 0x00000000
T77B0 004:689.395 JLINK_ReadReg(R10)
T77B0 004:689.403 - 0.010ms returns 0x00000000
T77B0 004:689.409 JLINK_ReadReg(R11)
T77B0 004:689.415 - 0.008ms returns 0x00000000
T77B0 004:689.439 JLINK_ReadReg(R12)
T77B0 004:689.461 - 0.028ms returns 0x00000000
T77B0 004:689.474 JLINK_ReadReg(R13 (SP))
T77B0 004:689.482 - 0.010ms returns 0x24022290
T77B0 004:689.489 JLINK_ReadReg(R14)
T77B0 004:689.495 - 0.008ms returns 0x080004A5
T77B0 004:689.501 JLINK_ReadReg(R15 (PC))
T77B0 004:689.507 - 0.008ms returns 0x08006AC0
T77B0 004:689.532 JLINK_ReadReg(XPSR)
T77B0 004:689.553 - 0.024ms returns 0x61000000
T77B0 004:689.561 JLINK_ReadReg(MSP)
T77B0 004:689.567 - 0.008ms returns 0x24022290
T77B0 004:689.573 JLINK_ReadReg(PSP)
T77B0 004:689.579 - 0.008ms returns 0x00000000
T77B0 004:689.586 JLINK_ReadReg(CFBP)
T77B0 004:689.591 - 0.008ms returns 0x00000000
T77B0 004:689.598 JLINK_ReadReg(FPSCR)
T77B0 004:692.402 - 2.818ms returns 0x00000000
T77B0 004:692.424 JLINK_ReadReg(FPS0)
T77B0 004:692.434 - 0.012ms returns 0x00000000
T77B0 004:692.468 JLINK_ReadReg(FPS1)
T77B0 004:692.479 - 0.015ms returns 0x00000000
T77B0 004:692.489 JLINK_ReadReg(FPS2)
T77B0 004:692.495 - 0.008ms returns 0x00000000
T77B0 004:692.501 JLINK_ReadReg(FPS3)
T77B0 004:692.507 - 0.008ms returns 0x00000000
T77B0 004:692.513 JLINK_ReadReg(FPS4)
T77B0 004:692.521 - 0.011ms returns 0x00000000
T77B0 004:692.530 JLINK_ReadReg(FPS5)
T77B0 004:692.537 - 0.011ms returns 0x00000000
T77B0 004:692.546 JLINK_ReadReg(FPS6)
T77B0 004:692.553 - 0.010ms returns 0x00000000
T77B0 004:692.561 JLINK_ReadReg(FPS7)
T77B0 004:692.568 - 0.010ms returns 0x00000000
T77B0 004:692.576 JLINK_ReadReg(FPS8)
T77B0 004:692.583 - 0.010ms returns 0x00000000
T77B0 004:692.592 JLINK_ReadReg(FPS9)
T77B0 004:692.599 - 0.011ms returns 0x00000000
T77B0 004:692.608 JLINK_ReadReg(FPS10)
T77B0 004:692.615 - 0.010ms returns 0x00000000
T77B0 004:692.624 JLINK_ReadReg(FPS11)
T77B0 004:692.631 - 0.010ms returns 0x00000000
T77B0 004:692.639 JLINK_ReadReg(FPS12)
T77B0 004:692.646 - 0.011ms returns 0x00000000
T77B0 004:692.655 JLINK_ReadReg(FPS13)
T77B0 004:692.662 - 0.010ms returns 0x00000000
T77B0 004:692.670 JLINK_ReadReg(FPS14)
T77B0 004:692.675 - 0.008ms returns 0x00000000
T77B0 004:692.682 JLINK_ReadReg(FPS15)
T77B0 004:692.688 - 0.043ms returns 0xFFFFFFFF
T77B0 004:692.737 JLINK_ReadReg(FPS16)
T77B0 004:692.746 - 0.012ms returns 0x00000000
T77B0 004:692.753 JLINK_ReadReg(FPS17)
T77B0 004:692.759 - 0.008ms returns 0x00000000
T77B0 004:692.766 JLINK_ReadReg(FPS18)
T77B0 004:692.771 - 0.008ms returns 0x00000000
T77B0 004:692.778 JLINK_ReadReg(FPS19)
T77B0 004:692.783 - 0.008ms returns 0x00000000
T77B0 004:692.798 JLINK_ReadReg(FPS20)
T77B0 004:692.805 - 0.009ms returns 0x00000000
T77B0 004:692.833 JLINK_ReadReg(FPS21)
T77B0 004:692.858 - 0.033ms returns 0x00000000
T77B0 004:692.874 JLINK_ReadReg(FPS22)
T77B0 004:692.880 - 0.009ms returns 0x00000000
T77B0 004:692.887 JLINK_ReadReg(FPS23)
T77B0 004:692.893 - 0.009ms returns 0x00000000
T77B0 004:692.901 JLINK_ReadReg(FPS24)
T77B0 004:692.909 - 0.011ms returns 0x00000000
T77B0 004:692.917 JLINK_ReadReg(FPS25)
T77B0 004:692.925 - 0.010ms returns 0x00000000
T77B0 004:692.932 JLINK_ReadReg(FPS26)
T77B0 004:692.938 - 0.008ms returns 0x00000000
T77B0 004:692.944 JLINK_ReadReg(FPS27)
T77B0 004:692.949 - 0.007ms returns 0x00000000
T77B0 004:692.956 JLINK_ReadReg(FPS28)
T77B0 004:692.962 - 0.087ms returns 0x00000000
T77B0 004:693.052 JLINK_ReadReg(FPS29)
T77B0 004:693.061 - 0.012ms returns 0x00000000
T77B0 004:693.097 JLINK_ReadReg(FPS30)
T77B0 004:693.104 - 0.010ms returns 0x00000000
T77B0 004:693.111 JLINK_ReadReg(FPS31)
T77B0 004:693.117 - 0.008ms returns 0xFFFFFFFF
T0978 004:695.538 JLINK_ReadMem (0x00000000, 0x0004 Bytes, ...)
T0978 004:695.584    -- CPU_ReadMem(64 bytes @ 0x00000000)
T0978 004:696.089    -- Updating C cache (64 bytes @ 0x00000000)
T0978 004:696.107    -- Read from C cache (4 bytes @ 0x00000000)
T0978 004:696.116    - Data: 8A 04 91 0F
T0978 004:696.124 - 0.589ms returns 0x00
T0978 004:736.983   JLINK_ReadMemU32(0xE0001004, 0x0001 Items, ...)
T0978 004:737.026    -- CPU_ReadMem(4 bytes @ 0xE0001004)
T0978 004:737.334    - Data: 2E 58 0D 00
T0978 004:737.353    - DWT_CYCCNT
T0978 004:737.360 - 0.381ms returns 1
T0978 004:761.340 JLINK_ReadMem (0x08006ABE, 0x0002 Bytes, ...)
T0978 004:761.368    -- CPU_ReadMem(64 bytes @ 0x08006A80)
T0978 004:761.982    -- Updating C cache (64 bytes @ 0x08006A80)
T0978 004:761.997    -- Read from C cache (2 bytes @ 0x08006ABE)
T0978 004:762.007    - Data: FE BD
T0978 004:762.040 - 0.705ms returns 0x00
T0978 004:762.071 JLINK_ReadMem (0x08006AC0, 0x003C Bytes, ...)
T0978 004:762.085    -- CPU_ReadMem(64 bytes @ 0x08006AC0)
T0978 004:762.589    -- Updating C cache (64 bytes @ 0x08006AC0)
T0978 004:762.607    -- Read from C cache (60 bytes @ 0x08006AC0)
T0978 004:762.619    - Data: FB F7 FC FC F9 F7 51 FD FA F0 00 FC FB F0 98 FB ...
T0978 004:762.630 - 0.563ms returns 0x00
T0978 011:767.148 JLINK_ReadMem (0x08006B20, 0x003C Bytes, ...)
T0978 011:767.178    -- CPU_ReadMem(128 bytes @ 0x08006B00)
T0978 011:767.981    -- Updating C cache (128 bytes @ 0x08006B00)
T0978 011:767.997    -- Read from C cache (60 bytes @ 0x08006B20)
T0978 011:768.005    - Data: F9 F0 22 FC 05 46 00 2D 05 DA 29 46 24 A0 FB F0 ...
T0978 011:768.011 - 0.865ms returns 0x00
T77B0 042:270.480   JLINK_SetBPEx(Addr = 0x08006B20, Type = 0xFFFFFFF2)
T77B0 042:270.511 - 0.035ms returns 0x00000002
T77B0 042:270.520   JLINK_SetBPEx(Addr = 0x08100450, Type = 0xFFFFFFF2)
T77B0 042:270.529 - 0.011ms returns 0x00000003
T77B0 042:270.537   JLINK_SetBPEx(Addr = 0x08006B0A, Type = 0xFFFFFFF2)
T77B0 042:270.544 - 0.010ms returns 0x00000004
T77B0 042:270.554 JLINK_Go()
T77B0 042:270.939    -- CPU_WriteMem(4 bytes @ 0xE0002000)
T77B0 042:271.207    -- CPU_WriteMem(4 bytes @ 0xE0002000)
T77B0 042:271.540    -- CPU_WriteMem(4 bytes @ 0xE0002000)
T77B0 042:271.801    -- CPU_ReadMem(4 bytes @ 0xE0001000)
T77B0 042:272.126    -- CPU_WriteMem(4 bytes @ 0xE0002008)
T77B0 042:272.141    -- CPU_WriteMem(4 bytes @ 0xE000200C)
T77B0 042:272.151    -- CPU_WriteMem(4 bytes @ 0xE0002010)
T77B0 042:273.111 - 2.566ms
T77B0 042:374.039 JLINK_IsHalted()
T77B0 042:374.348 - 0.315ms returns FALSE
T77B0 042:474.561 JLINK_IsHalted()
T77B0 042:474.847 - 0.301ms returns FALSE
T77B0 042:575.696 JLINK_IsHalted()
T77B0 042:576.075 - 0.387ms returns FALSE
T77B0 042:676.591 JLINK_IsHalted()
T77B0 042:676.969 - 0.383ms returns FALSE
T77B0 042:777.702 JLINK_IsHalted()
T77B0 042:778.003 - 0.307ms returns FALSE
T77B0 042:878.261 JLINK_IsHalted()
T77B0 042:878.528 - 0.272ms returns FALSE
T77B0 042:979.473 JLINK_IsHalted()
T77B0 042:979.747 - 0.289ms returns FALSE
T77B0 043:080.002 JLINK_IsHalted()
T77B0 043:080.312 - 0.324ms returns FALSE
T77B0 043:181.310 JLINK_IsHalted()
T77B0 043:181.657 - 0.359ms returns FALSE
T77B0 043:281.705 JLINK_IsHalted()
T77B0 043:281.957 - 0.263ms returns FALSE
T77B0 043:382.228 JLINK_IsHalted()
T77B0 043:382.497 - 0.281ms returns FALSE
T77B0 043:483.371 JLINK_IsHalted()
T77B0 043:483.687 - 0.333ms returns FALSE
T77B0 043:584.167 JLINK_IsHalted()
T77B0 043:584.454 - 0.293ms returns FALSE
T77B0 043:684.621 JLINK_IsHalted()
T77B0 043:684.925 - 0.315ms returns FALSE
T77B0 043:785.196 JLINK_IsHalted()
T77B0 043:785.529 - 0.337ms returns FALSE
T77B0 043:886.296 JLINK_IsHalted()
T77B0 043:886.622 - 0.339ms returns FALSE
T77B0 043:986.730 JLINK_IsHalted()
T77B0 043:987.073 - 0.352ms returns FALSE
T77B0 044:087.966 JLINK_IsHalted()
T77B0 044:088.272 - 0.317ms returns FALSE
T77B0 044:188.348 JLINK_IsHalted()
T77B0 044:188.729 - 0.393ms returns FALSE
T77B0 044:289.692 JLINK_IsHalted()
T77B0 044:290.042 - 0.362ms returns FALSE
T77B0 044:390.544 JLINK_IsHalted()
T77B0 044:390.803 - 0.264ms returns FALSE
T77B0 044:491.522 JLINK_IsHalted()
T77B0 044:491.808 - 0.293ms returns FALSE
T77B0 044:592.817 JLINK_IsHalted()
T77B0 044:593.133 - 0.327ms returns FALSE
T77B0 044:693.631 JLINK_IsHalted()
T77B0 044:693.932 - 0.312ms returns FALSE
T77B0 044:794.739 JLINK_IsHalted()
T77B0 044:795.096 - 0.363ms returns FALSE
T77B0 044:895.987 JLINK_IsHalted()
T77B0 044:896.285 - 0.309ms returns FALSE
T77B0 044:996.484 JLINK_IsHalted()
T77B0 044:996.769 - 0.297ms returns FALSE
T77B0 045:097.000 JLINK_IsHalted()
T77B0 045:097.283 - 0.290ms returns FALSE
T77B0 045:197.604 JLINK_IsHalted()
T77B0 045:198.008 - 0.418ms returns FALSE
T77B0 045:298.165 JLINK_IsHalted()
T77B0 045:298.429 - 0.270ms returns FALSE
T77B0 045:398.720 JLINK_IsHalted()
T77B0 045:399.099 - 0.395ms returns FALSE
T77B0 045:500.048 JLINK_IsHalted()
T77B0 045:500.359 - 0.319ms returns FALSE
T77B0 045:600.621 JLINK_IsHalted()
T77B0 045:600.932 - 0.324ms returns FALSE
T77B0 045:701.156 JLINK_IsHalted()
T77B0 045:701.430 - 0.278ms returns FALSE
T77B0 045:801.750 JLINK_IsHalted()
T77B0 045:802.082 - 0.340ms returns FALSE
T77B0 045:902.186 JLINK_IsHalted()
T77B0 045:902.463 - 0.288ms returns FALSE
T77B0 046:002.907 JLINK_IsHalted()
T77B0 046:003.178 - 0.281ms returns FALSE
T77B0 046:103.848 JLINK_IsHalted()
T77B0 046:104.108 - 0.265ms returns FALSE
T77B0 046:204.321 JLINK_IsHalted()
T77B0 046:204.697 - 0.389ms returns FALSE
T77B0 046:304.767 JLINK_IsHalted()
T77B0 046:305.074 - 0.319ms returns FALSE
T77B0 046:405.683 JLINK_IsHalted()
T77B0 046:406.006 - 0.336ms returns FALSE
T77B0 046:506.172 JLINK_IsHalted()
T77B0 046:506.482 - 0.322ms returns FALSE
T77B0 046:606.929 JLINK_IsHalted()
T77B0 046:607.215 - 0.293ms returns FALSE
T77B0 046:707.573 JLINK_IsHalted()
T77B0 046:707.860 - 0.299ms returns FALSE
T77B0 046:807.997 JLINK_IsHalted()
T77B0 046:808.323 - 0.339ms returns FALSE
T77B0 046:908.531 JLINK_IsHalted()
T77B0 046:908.793 - 0.267ms returns FALSE
T77B0 047:008.887 JLINK_IsHalted()
T77B0 047:009.164 - 0.289ms returns FALSE
T77B0 047:109.913 JLINK_IsHalted()
T77B0 047:110.212 - 0.312ms returns FALSE
T77B0 047:211.043 JLINK_IsHalted()
T77B0 047:211.360 - 0.330ms returns FALSE
T77B0 047:312.192 JLINK_IsHalted()
T77B0 047:312.464 - 0.279ms returns FALSE
T77B0 047:412.822 JLINK_IsHalted()
T77B0 047:413.129 - 0.314ms returns FALSE
T77B0 047:513.534 JLINK_IsHalted()
T77B0 047:513.848 - 0.320ms returns FALSE
T77B0 047:614.648 JLINK_IsHalted()
T77B0 047:614.950 - 0.317ms returns FALSE
T77B0 047:715.266 JLINK_IsHalted()
T77B0 047:715.584 - 0.330ms returns FALSE
T77B0 047:816.050 JLINK_IsHalted()
T77B0 047:816.310 - 0.265ms returns FALSE
T77B0 047:916.844 JLINK_IsHalted()
T77B0 047:917.157 - 0.318ms returns FALSE
T77B0 048:017.452 JLINK_IsHalted()
T77B0 048:017.758 - 0.317ms returns FALSE
T77B0 048:117.866 JLINK_IsHalted()
T77B0 048:118.135 - 0.280ms returns FALSE
T77B0 048:218.415 JLINK_IsHalted()
T77B0 048:220.210 - 1.805ms returns TRUE
T77B0 048:220.228 JLINK_Halt()
T77B0 048:220.233 - 0.007ms returns 0x00
T77B0 048:220.240 JLINK_IsHalted()
T77B0 048:220.250 - 0.013ms returns TRUE
T77B0 048:220.257 JLINK_IsHalted()
T77B0 048:220.261 - 0.007ms returns TRUE
T77B0 048:220.267 JLINK_IsHalted()
T77B0 048:220.272 - 0.007ms returns TRUE
T77B0 048:220.280 JLINK_ReadReg(R15 (PC))
T77B0 048:220.287 - 0.009ms returns 0x08006B0A
T77B0 048:220.293 JLINK_ReadReg(XPSR)
T77B0 048:220.298 - 0.007ms returns 0x21000000
T77B0 048:220.307 JLINK_ClrBPEx(BPHandle = 0x00000002)
T77B0 048:220.313 - 0.007ms returns 0x00
T77B0 048:220.320 JLINK_ClrBPEx(BPHandle = 0x00000003)
T77B0 048:220.325 - 0.007ms returns 0x00
T77B0 048:220.332 JLINK_ClrBPEx(BPHandle = 0x00000004)
T77B0 048:220.337 - 0.007ms returns 0x00
T77B0 048:220.346   JLINK_ReadMemU32(0xE000ED30, 0x0001 Items, ...)
T77B0 048:220.358    -- CPU_ReadMem(4 bytes @ 0xE000ED30)
T77B0 048:220.588    - Data: 02 00 00 00
T77B0 048:220.614 - 0.273ms returns 1
T77B0 048:220.631   JLINK_ReadMemU32(0xE0001028, 0x0001 Items, ...)
T77B0 048:220.654    -- CPU_ReadMem(4 bytes @ 0xE0001028)
T77B0 048:220.933    - Data: 00 00 00 00
T77B0 048:220.956    - DWT_FUNC[0]
T77B0 048:220.968 - 0.342ms returns 1
T77B0 048:220.982   JLINK_ReadMemU32(0xE0001038, 0x0001 Items, ...)
T77B0 048:221.001    -- CPU_ReadMem(4 bytes @ 0xE0001038)
T77B0 048:221.242    - Data: 00 02 00 00
T77B0 048:221.255    - DWT_FUNC[1]
T77B0 048:221.262 - 0.282ms returns 1
T77B0 048:221.270   JLINK_ReadMemU32(0xE0001048, 0x0001 Items, ...)
T77B0 048:221.281    -- CPU_ReadMem(4 bytes @ 0xE0001048)
T77B0 048:221.502    - Data: 00 00 00 00
T77B0 048:221.512    - DWT_FUNC[2]
T77B0 048:221.520 - 0.252ms returns 1
T77B0 048:221.527   JLINK_ReadMemU32(0xE0001058, 0x0001 Items, ...)
T77B0 048:221.537    -- CPU_ReadMem(4 bytes @ 0xE0001058)
T77B0 048:221.757    - Data: 00 00 00 00
T77B0 048:221.782    - DWT_FUNC[3]
T77B0 048:221.795 - 0.272ms returns 1
T77B0 048:221.907 JLINK_ReadReg(R0)
T77B0 048:221.922 - 0.020ms returns 0x00000001
T77B0 048:221.934 JLINK_ReadReg(R1)
T77B0 048:221.944 - 0.015ms returns 0x00000040
T77B0 048:221.955 JLINK_ReadReg(R2)
T77B0 048:221.965 - 0.014ms returns 0x00000000
T77B0 048:221.976 JLINK_ReadReg(R3)
T77B0 048:221.986 - 0.014ms returns 0x00000000
T77B0 048:221.997 JLINK_ReadReg(R4)
T77B0 048:222.006 - 0.014ms returns 0x08006F3C
T77B0 048:222.017 JLINK_ReadReg(R5)
T77B0 048:222.026 - 0.013ms returns 0x00000001
T77B0 048:222.038 JLINK_ReadReg(R6)
T77B0 048:222.047 - 0.014ms returns 0x00000000
T77B0 048:222.058 JLINK_ReadReg(R7)
T77B0 048:222.068 - 0.013ms returns 0x00000000
T77B0 048:222.078 JLINK_ReadReg(R8)
T77B0 048:222.089 - 0.015ms returns 0x00000000
T77B0 048:222.100 JLINK_ReadReg(R9)
T77B0 048:222.110 - 0.014ms returns 0x00000000
T77B0 048:222.121 JLINK_ReadReg(R10)
T77B0 048:222.130 - 0.014ms returns 0x00000000
T77B0 048:222.141 JLINK_ReadReg(R11)
T77B0 048:222.151 - 0.013ms returns 0x00000000
T77B0 048:222.161 JLINK_ReadReg(R12)
T77B0 048:222.171 - 0.014ms returns 0x00002C79
T77B0 048:222.182 JLINK_ReadReg(R13 (SP))
T77B0 048:222.192 - 0.014ms returns 0x24022290
T77B0 048:222.202 JLINK_ReadReg(R14)
T77B0 048:222.211 - 0.013ms returns 0x08003537
T77B0 048:222.222 JLINK_ReadReg(R15 (PC))
T77B0 048:222.231 - 0.013ms returns 0x08006B0A
T77B0 048:222.242 JLINK_ReadReg(XPSR)
T77B0 048:222.251 - 0.013ms returns 0x21000000
T77B0 048:222.262 JLINK_ReadReg(MSP)
T77B0 048:222.271 - 0.013ms returns 0x24022290
T77B0 048:222.282 JLINK_ReadReg(PSP)
T77B0 048:222.292 - 0.014ms returns 0x00000000
T77B0 048:222.302 JLINK_ReadReg(CFBP)
T77B0 048:222.311 - 0.013ms returns 0x04000000
T77B0 048:222.322 JLINK_ReadReg(FPSCR)
T77B0 048:225.134 - 2.819ms returns 0x00000000
T77B0 048:225.153 JLINK_ReadReg(FPS0)
T77B0 048:225.161 - 0.010ms returns 0x00000000
T77B0 048:225.168 JLINK_ReadReg(FPS1)
T77B0 048:225.173 - 0.007ms returns 0x00000002
T77B0 048:225.179 JLINK_ReadReg(FPS2)
T77B0 048:225.184 - 0.007ms returns 0x4E3EBC20
T77B0 048:225.190 JLINK_ReadReg(FPS3)
T77B0 048:225.217 - 0.031ms returns 0x17D78400
T77B0 048:225.244 JLINK_ReadReg(FPS4)
T77B0 048:225.254 - 0.051ms returns 0x4DBEBC20
T77B0 048:225.302 JLINK_ReadReg(FPS5)
T77B0 048:225.308 - 0.008ms returns 0x3F800000
T77B0 048:225.314 JLINK_ReadReg(FPS6)
T77B0 048:225.319 - 0.007ms returns 0x00000000
T77B0 048:225.325 JLINK_ReadReg(FPS7)
T77B0 048:225.330 - 0.007ms returns 0x00000000
T77B0 048:225.335 JLINK_ReadReg(FPS8)
T77B0 048:225.340 - 0.007ms returns 0x00000000
T77B0 048:225.346 JLINK_ReadReg(FPS9)
T77B0 048:225.356 - 0.012ms returns 0x00000000
T77B0 048:225.370 JLINK_ReadReg(FPS10)
T77B0 048:225.377 - 0.009ms returns 0x00000000
T77B0 048:225.383 JLINK_ReadReg(FPS11)
T77B0 048:225.387 - 0.007ms returns 0x00000000
T77B0 048:225.393 JLINK_ReadReg(FPS12)
T77B0 048:225.398 - 0.007ms returns 0x00000000
T77B0 048:225.404 JLINK_ReadReg(FPS13)
T77B0 048:225.409 - 0.007ms returns 0x00000000
T77B0 048:225.415 JLINK_ReadReg(FPS14)
T77B0 048:225.420 - 0.007ms returns 0x00000000
T77B0 048:225.425 JLINK_ReadReg(FPS15)
T77B0 048:225.430 - 0.007ms returns 0xFFFFFFFF
T77B0 048:225.436 JLINK_ReadReg(FPS16)
T77B0 048:225.441 - 0.007ms returns 0x00000000
T77B0 048:225.446 JLINK_ReadReg(FPS17)
T77B0 048:225.451 - 0.007ms returns 0x00000000
T77B0 048:225.457 JLINK_ReadReg(FPS18)
T77B0 048:225.462 - 0.007ms returns 0x00000000
T77B0 048:225.474 JLINK_ReadReg(FPS19)
T77B0 048:225.480 - 0.008ms returns 0x00000000
T77B0 048:225.486 JLINK_ReadReg(FPS20)
T77B0 048:225.491 - 0.007ms returns 0x00000000
T77B0 048:225.497 JLINK_ReadReg(FPS21)
T77B0 048:225.502 - 0.007ms returns 0x00000000
T77B0 048:225.507 JLINK_ReadReg(FPS22)
T77B0 048:225.512 - 0.007ms returns 0x00000000
T77B0 048:225.518 JLINK_ReadReg(FPS23)
T77B0 048:225.523 - 0.007ms returns 0x00000000
T77B0 048:225.528 JLINK_ReadReg(FPS24)
T77B0 048:225.533 - 0.007ms returns 0x00000000
T77B0 048:225.539 JLINK_ReadReg(FPS25)
T77B0 048:225.544 - 0.007ms returns 0x00000000
T77B0 048:225.550 JLINK_ReadReg(FPS26)
T77B0 048:225.555 - 0.007ms returns 0x00000000
T77B0 048:225.561 JLINK_ReadReg(FPS27)
T77B0 048:225.565 - 0.007ms returns 0x00000000
T77B0 048:225.571 JLINK_ReadReg(FPS28)
T77B0 048:225.576 - 0.007ms returns 0x00000000
T77B0 048:225.582 JLINK_ReadReg(FPS29)
T77B0 048:225.587 - 0.007ms returns 0x00000000
T77B0 048:225.592 JLINK_ReadReg(FPS30)
T77B0 048:225.597 - 0.007ms returns 0x00000000
T77B0 048:225.603 JLINK_ReadReg(FPS31)
T77B0 048:225.608 - 0.007ms returns 0xFFFFFFFF
T0978 048:227.472   JLINK_ReadMemU32(0xE0001004, 0x0001 Items, ...)
T0978 048:227.490    -- CPU_ReadMem(4 bytes @ 0xE0001004)
T0978 048:227.740    - Data: 85 51 A6 8D
T0978 048:227.774    - DWT_CYCCNT
T0978 048:227.781 - 0.311ms returns 1
T0978 048:239.308 JLINK_ReadMem (0x08006B04, 0x003C Bytes, ...)
T0978 048:239.343    -- CPU_ReadMem(64 bytes @ 0x08006B00)
T0978 048:239.968    -- Updating C cache (64 bytes @ 0x08006B00)
T0978 048:239.989    -- Read from C cache (60 bytes @ 0x08006B04)
T0978 048:239.997    - Data: F9 F7 76 FE 05 46 00 2D 05 DA 29 46 1C A0 FB F0 ...
T0978 048:240.005 - 0.700ms returns 0x00
T77B0 052:150.564 JLINK_Step()
T77B0 052:150.857    -- CPU_WriteMem(4 bytes @ 0xE0002008)
T77B0 052:150.875    -- CPU_WriteMem(4 bytes @ 0xE000200C)
T77B0 052:150.883    -- CPU_WriteMem(4 bytes @ 0xE0002010)
T77B0 052:154.533 - 3.980ms returns 0x00
T77B0 052:154.556 JLINK_ReadReg(R15 (PC))
T77B0 052:154.564 - 0.010ms returns 0x08006B0C
T77B0 052:154.570 JLINK_ReadReg(XPSR)
T77B0 052:154.575 - 0.007ms returns 0x21000000
T77B0 052:154.643 JLINK_ReadReg(R0)
T77B0 052:154.649 - 0.008ms returns 0x00000001
T77B0 052:154.654 JLINK_ReadReg(R1)
T77B0 052:154.659 - 0.006ms returns 0x00000040
T77B0 052:154.664 JLINK_ReadReg(R2)
T77B0 052:154.669 - 0.006ms returns 0x00000000
T77B0 052:154.675 JLINK_ReadReg(R3)
T77B0 052:154.679 - 0.007ms returns 0x00000000
T77B0 052:154.685 JLINK_ReadReg(R4)
T77B0 052:154.689 - 0.006ms returns 0x08006F3C
T77B0 052:154.695 JLINK_ReadReg(R5)
T77B0 052:154.700 - 0.006ms returns 0x00000001
T77B0 052:154.705 JLINK_ReadReg(R6)
T77B0 052:154.710 - 0.006ms returns 0x00000000
T77B0 052:154.715 JLINK_ReadReg(R7)
T77B0 052:154.720 - 0.010ms returns 0x00000000
T77B0 052:154.731 JLINK_ReadReg(R8)
T77B0 052:154.736 - 0.007ms returns 0x00000000
T77B0 052:154.741 JLINK_ReadReg(R9)
T77B0 052:154.746 - 0.007ms returns 0x00000000
T77B0 052:154.752 JLINK_ReadReg(R10)
T77B0 052:154.757 - 0.007ms returns 0x00000000
T77B0 052:154.763 JLINK_ReadReg(R11)
T77B0 052:154.767 - 0.007ms returns 0x00000000
T77B0 052:154.773 JLINK_ReadReg(R12)
T77B0 052:154.777 - 0.006ms returns 0x00002C79
T77B0 052:154.783 JLINK_ReadReg(R13 (SP))
T77B0 052:154.788 - 0.007ms returns 0x24022290
T77B0 052:154.793 JLINK_ReadReg(R14)
T77B0 052:154.798 - 0.007ms returns 0x08003537
T77B0 052:154.804 JLINK_ReadReg(R15 (PC))
T77B0 052:154.808 - 0.007ms returns 0x08006B0C
T77B0 052:154.814 JLINK_ReadReg(XPSR)
T77B0 052:154.819 - 0.007ms returns 0x21000000
T77B0 052:154.825 JLINK_ReadReg(MSP)
T77B0 052:154.829 - 0.006ms returns 0x24022290
T77B0 052:154.835 JLINK_ReadReg(PSP)
T77B0 052:154.839 - 0.006ms returns 0x00000000
T77B0 052:154.845 JLINK_ReadReg(CFBP)
T77B0 052:154.849 - 0.006ms returns 0x04000000
T77B0 052:154.855 JLINK_ReadReg(FPSCR)
T77B0 052:157.630 - 2.782ms returns 0x00000000
T77B0 052:157.644 JLINK_ReadReg(FPS0)
T77B0 052:157.650 - 0.008ms returns 0x00000000
T77B0 052:157.655 JLINK_ReadReg(FPS1)
T77B0 052:157.660 - 0.007ms returns 0x00000002
T77B0 052:157.666 JLINK_ReadReg(FPS2)
T77B0 052:157.670 - 0.007ms returns 0x4E3EBC20
T77B0 052:157.676 JLINK_ReadReg(FPS3)
T77B0 052:157.680 - 0.006ms returns 0x17D78400
T77B0 052:157.686 JLINK_ReadReg(FPS4)
T77B0 052:157.691 - 0.006ms returns 0x4DBEBC20
T77B0 052:157.696 JLINK_ReadReg(FPS5)
T77B0 052:157.701 - 0.007ms returns 0x3F800000
T77B0 052:157.707 JLINK_ReadReg(FPS6)
T77B0 052:157.711 - 0.006ms returns 0x00000000
T77B0 052:157.717 JLINK_ReadReg(FPS7)
T77B0 052:157.722 - 0.007ms returns 0x00000000
T77B0 052:157.727 JLINK_ReadReg(FPS8)
T77B0 052:157.732 - 0.007ms returns 0x00000000
T77B0 052:157.738 JLINK_ReadReg(FPS9)
T77B0 052:157.742 - 0.006ms returns 0x00000000
T77B0 052:157.748 JLINK_ReadReg(FPS10)
T77B0 052:157.753 - 0.006ms returns 0x00000000
T77B0 052:157.758 JLINK_ReadReg(FPS11)
T77B0 052:157.762 - 0.006ms returns 0x00000000
T77B0 052:157.768 JLINK_ReadReg(FPS12)
T77B0 052:157.773 - 0.006ms returns 0x00000000
T77B0 052:157.778 JLINK_ReadReg(FPS13)
T77B0 052:157.783 - 0.007ms returns 0x00000000
T77B0 052:157.789 JLINK_ReadReg(FPS14)
T77B0 052:157.793 - 0.007ms returns 0x00000000
T77B0 052:157.799 JLINK_ReadReg(FPS15)
T77B0 052:157.803 - 0.006ms returns 0xFFFFFFFF
T77B0 052:157.809 JLINK_ReadReg(FPS16)
T77B0 052:157.813 - 0.006ms returns 0x00000000
T77B0 052:157.819 JLINK_ReadReg(FPS17)
T77B0 052:157.823 - 0.006ms returns 0x00000000
T77B0 052:157.829 JLINK_ReadReg(FPS18)
T77B0 052:157.834 - 0.007ms returns 0x00000000
T77B0 052:157.840 JLINK_ReadReg(FPS19)
T77B0 052:157.844 - 0.006ms returns 0x00000000
T77B0 052:157.850 JLINK_ReadReg(FPS20)
T77B0 052:157.854 - 0.007ms returns 0x00000000
T77B0 052:157.860 JLINK_ReadReg(FPS21)
T77B0 052:157.865 - 0.007ms returns 0x00000000
T77B0 052:157.870 JLINK_ReadReg(FPS22)
T77B0 052:157.875 - 0.007ms returns 0x00000000
T77B0 052:157.880 JLINK_ReadReg(FPS23)
T77B0 052:157.885 - 0.007ms returns 0x00000000
T77B0 052:157.891 JLINK_ReadReg(FPS24)
T77B0 052:157.895 - 0.006ms returns 0x00000000
T77B0 052:157.901 JLINK_ReadReg(FPS25)
T77B0 052:157.905 - 0.006ms returns 0x00000000
T77B0 052:157.911 JLINK_ReadReg(FPS26)
T77B0 052:157.915 - 0.006ms returns 0x00000000
T77B0 052:157.921 JLINK_ReadReg(FPS27)
T77B0 052:157.925 - 0.006ms returns 0x00000000
T77B0 052:157.931 JLINK_ReadReg(FPS28)
T77B0 052:157.935 - 0.006ms returns 0x00000000
T77B0 052:157.941 JLINK_ReadReg(FPS29)
T77B0 052:157.945 - 0.006ms returns 0x00000000
T77B0 052:157.951 JLINK_ReadReg(FPS30)
T77B0 052:157.955 - 0.007ms returns 0x00000000
T77B0 052:157.961 JLINK_ReadReg(FPS31)
T77B0 052:157.966 - 0.006ms returns 0xFFFFFFFF
T0978 052:158.576   JLINK_ReadMemU32(0xE0001004, 0x0001 Items, ...)
T0978 052:158.597    -- CPU_ReadMem(4 bytes @ 0xE0001004)
T0978 052:158.820    - Data: 9B 51 A6 8D
T0978 052:158.831    - DWT_CYCCNT
T0978 052:158.837 - 0.264ms returns 1
T0978 052:256.924 JLINK_ReadMem (0x08006B08, 0x003C Bytes, ...)
T0978 052:256.989    -- CPU_ReadMem(128 bytes @ 0x08006B00)
T0978 052:257.815    -- Updating C cache (128 bytes @ 0x08006B00)
T0978 052:257.836    -- Read from C cache (60 bytes @ 0x08006B08)
T0978 052:257.865    - Data: 05 46 00 2D 05 DA 29 46 1C A0 FB F0 21 FD 00 BF ...
T0978 052:257.885 - 0.964ms returns 0x00
T77B0 052:911.770 JLINK_Step()
T77B0 052:915.044 - 3.286ms returns 0x00
T77B0 052:915.103 JLINK_ReadReg(R15 (PC))
T77B0 052:915.121 - 0.021ms returns 0x08006B1A
T77B0 052:915.178 JLINK_ReadReg(XPSR)
T77B0 052:915.186 - 0.010ms returns 0x21000000
T77B0 052:915.284 JLINK_ReadReg(R0)
T77B0 052:915.300 - 0.019ms returns 0x00000001
T77B0 052:915.307 JLINK_ReadReg(R1)
T77B0 052:915.312 - 0.007ms returns 0x00000040
T77B0 052:915.318 JLINK_ReadReg(R2)
T77B0 052:915.323 - 0.006ms returns 0x00000000
T77B0 052:915.328 JLINK_ReadReg(R3)
T77B0 052:915.333 - 0.006ms returns 0x00000000
T77B0 052:915.339 JLINK_ReadReg(R4)
T77B0 052:915.344 - 0.007ms returns 0x08006F3C
T77B0 052:915.373 JLINK_ReadReg(R5)
T77B0 052:915.392 - 0.022ms returns 0x00000001
T77B0 052:915.399 JLINK_ReadReg(R6)
T77B0 052:915.405 - 0.007ms returns 0x00000000
T77B0 052:915.411 JLINK_ReadReg(R7)
T77B0 052:915.415 - 0.007ms returns 0x00000000
T77B0 052:915.421 JLINK_ReadReg(R8)
T77B0 052:915.426 - 0.007ms returns 0x00000000
T77B0 052:915.432 JLINK_ReadReg(R9)
T77B0 052:915.437 - 0.006ms returns 0x00000000
T77B0 052:915.442 JLINK_ReadReg(R10)
T77B0 052:915.447 - 0.006ms returns 0x00000000
T77B0 052:915.453 JLINK_ReadReg(R11)
T77B0 052:915.457 - 0.007ms returns 0x00000000
T77B0 052:915.463 JLINK_ReadReg(R12)
T77B0 052:915.467 - 0.006ms returns 0x00002C79
T77B0 052:915.473 JLINK_ReadReg(R13 (SP))
T77B0 052:915.478 - 0.007ms returns 0x24022290
T77B0 052:915.483 JLINK_ReadReg(R14)
T77B0 052:915.488 - 0.007ms returns 0x08003537
T77B0 052:915.494 JLINK_ReadReg(R15 (PC))
T77B0 052:915.499 - 0.007ms returns 0x08006B1A
T77B0 052:915.504 JLINK_ReadReg(XPSR)
T77B0 052:915.509 - 0.007ms returns 0x21000000
T77B0 052:915.515 JLINK_ReadReg(MSP)
T77B0 052:915.520 - 0.006ms returns 0x24022290
T77B0 052:915.559 JLINK_ReadReg(PSP)
T77B0 052:915.573 - 0.016ms returns 0x00000000
T77B0 052:915.580 JLINK_ReadReg(CFBP)
T77B0 052:915.585 - 0.007ms returns 0x04000000
T77B0 052:915.591 JLINK_ReadReg(FPSCR)
T77B0 052:918.383 - 2.800ms returns 0x00000000
T77B0 052:918.397 JLINK_ReadReg(FPS0)
T77B0 052:918.403 - 0.009ms returns 0x00000000
T77B0 052:918.410 JLINK_ReadReg(FPS1)
T77B0 052:918.415 - 0.007ms returns 0x00000002
T77B0 052:918.420 JLINK_ReadReg(FPS2)
T77B0 052:918.425 - 0.007ms returns 0x4E3EBC20
T77B0 052:918.431 JLINK_ReadReg(FPS3)
T77B0 052:918.436 - 0.007ms returns 0x17D78400
T77B0 052:918.442 JLINK_ReadReg(FPS4)
T77B0 052:918.446 - 0.006ms returns 0x4DBEBC20
T77B0 052:918.452 JLINK_ReadReg(FPS5)
T77B0 052:918.456 - 0.006ms returns 0x3F800000
T77B0 052:918.462 JLINK_ReadReg(FPS6)
T77B0 052:918.466 - 0.006ms returns 0x00000000
T77B0 052:918.472 JLINK_ReadReg(FPS7)
T77B0 052:918.477 - 0.006ms returns 0x00000000
T77B0 052:918.482 JLINK_ReadReg(FPS8)
T77B0 052:918.487 - 0.006ms returns 0x00000000
T77B0 052:918.492 JLINK_ReadReg(FPS9)
T77B0 052:918.497 - 0.006ms returns 0x00000000
T77B0 052:918.502 JLINK_ReadReg(FPS10)
T77B0 052:918.507 - 0.006ms returns 0x00000000
T77B0 052:918.549 JLINK_ReadReg(FPS11)
T77B0 052:918.569 - 0.023ms returns 0x00000000
T77B0 052:918.576 JLINK_ReadReg(FPS12)
T77B0 052:918.581 - 0.007ms returns 0x00000000
T77B0 052:918.587 JLINK_ReadReg(FPS13)
T77B0 052:918.592 - 0.007ms returns 0x00000000
T77B0 052:918.597 JLINK_ReadReg(FPS14)
T77B0 052:918.602 - 0.006ms returns 0x00000000
T77B0 052:918.608 JLINK_ReadReg(FPS15)
T77B0 052:918.612 - 0.006ms returns 0xFFFFFFFF
T77B0 052:918.618 JLINK_ReadReg(FPS16)
T77B0 052:918.622 - 0.007ms returns 0x00000000
T77B0 052:918.640 JLINK_ReadReg(FPS17)
T77B0 052:918.657 - 0.025ms returns 0x00000000
T77B0 052:918.671 JLINK_ReadReg(FPS18)
T77B0 052:918.677 - 0.008ms returns 0x00000000
T77B0 052:918.683 JLINK_ReadReg(FPS19)
T77B0 052:918.688 - 0.006ms returns 0x00000000
T77B0 052:918.693 JLINK_ReadReg(FPS20)
T77B0 052:918.698 - 0.006ms returns 0x00000000
T77B0 052:918.703 JLINK_ReadReg(FPS21)
T77B0 052:918.708 - 0.007ms returns 0x00000000
T77B0 052:918.749 JLINK_ReadReg(FPS22)
T77B0 052:918.755 - 0.008ms returns 0x00000000
T77B0 052:918.761 JLINK_ReadReg(FPS23)
T77B0 052:918.766 - 0.007ms returns 0x00000000
T77B0 052:918.772 JLINK_ReadReg(FPS24)
T77B0 052:918.777 - 0.007ms returns 0x00000000
T77B0 052:918.783 JLINK_ReadReg(FPS25)
T77B0 052:918.787 - 0.006ms returns 0x00000000
T77B0 052:918.793 JLINK_ReadReg(FPS26)
T77B0 052:918.797 - 0.006ms returns 0x00000000
T77B0 052:918.803 JLINK_ReadReg(FPS27)
T77B0 052:918.808 - 0.006ms returns 0x00000000
T77B0 052:918.813 JLINK_ReadReg(FPS28)
T77B0 052:918.818 - 0.007ms returns 0x00000000
T77B0 052:918.824 JLINK_ReadReg(FPS29)
T77B0 052:918.828 - 0.006ms returns 0x00000000
T77B0 052:918.834 JLINK_ReadReg(FPS30)
T77B0 052:918.839 - 0.006ms returns 0x00000000
T77B0 052:918.844 JLINK_ReadReg(FPS31)
T77B0 052:918.849 - 0.006ms returns 0xFFFFFFFF
T0978 052:922.089   JLINK_ReadMemU32(0xE0001004, 0x0001 Items, ...)
T0978 052:922.116    -- CPU_ReadMem(4 bytes @ 0xE0001004)
T0978 052:922.350    - Data: B5 51 A6 8D
T0978 052:922.360    - DWT_CYCCNT
T0978 052:922.367 - 0.281ms returns 1
T0978 052:933.198 JLINK_ReadMem (0x08006B16, 0x0002 Bytes, ...)
T0978 052:933.230    -- CPU_ReadMem(64 bytes @ 0x08006B00)
T0978 052:933.805    -- Updating C cache (64 bytes @ 0x08006B00)
T0978 052:933.816    -- Read from C cache (2 bytes @ 0x08006B16)
T0978 052:933.825    - Data: 00 BF
T0978 052:933.833 - 0.637ms returns 0x00
T0978 052:933.844 JLINK_ReadMem (0x08006B18, 0x003C Bytes, ...)
T0978 052:933.854    -- CPU_ReadMem(64 bytes @ 0x08006B40)
T0978 052:934.378    -- Updating C cache (64 bytes @ 0x08006B40)
T0978 052:934.397    -- Read from C cache (60 bytes @ 0x08006B18)
T0978 052:934.405    - Data: FE E7 22 A0 FB F0 1C FD F9 F0 22 FC 05 46 00 2D ...
T0978 052:934.412 - 0.570ms returns 0x00
T77B0 054:239.862 JLINK_Step()
T77B0 054:243.161 - 3.310ms returns 0x00
T77B0 054:243.182 JLINK_ReadReg(R15 (PC))
T77B0 054:243.189 - 0.010ms returns 0x08006B1C
T77B0 054:243.195 JLINK_ReadReg(XPSR)
T77B0 054:243.200 - 0.007ms returns 0x21000000
T77B0 054:243.274 JLINK_ReadReg(R0)
T77B0 054:243.289 - 0.017ms returns 0x08006BA4
T77B0 054:243.295 JLINK_ReadReg(R1)
T77B0 054:243.300 - 0.007ms returns 0x00000040
T77B0 054:243.306 JLINK_ReadReg(R2)
T77B0 054:243.311 - 0.007ms returns 0x00000000
T77B0 054:243.317 JLINK_ReadReg(R3)
T77B0 054:243.322 - 0.032ms returns 0x00000000
T77B0 054:243.361 JLINK_ReadReg(R4)
T77B0 054:243.369 - 0.010ms returns 0x08006F3C
T77B0 054:243.375 JLINK_ReadReg(R5)
T77B0 054:243.380 - 0.007ms returns 0x00000001
T77B0 054:243.386 JLINK_ReadReg(R6)
T77B0 054:243.391 - 0.007ms returns 0x00000000
T77B0 054:243.396 JLINK_ReadReg(R7)
T77B0 054:243.401 - 0.006ms returns 0x00000000
T77B0 054:243.406 JLINK_ReadReg(R8)
T77B0 054:243.411 - 0.007ms returns 0x00000000
T77B0 054:243.417 JLINK_ReadReg(R9)
T77B0 054:243.421 - 0.007ms returns 0x00000000
T77B0 054:243.462 JLINK_ReadReg(R10)
T77B0 054:243.469 - 0.009ms returns 0x00000000
T77B0 054:243.475 JLINK_ReadReg(R11)
T77B0 054:243.480 - 0.007ms returns 0x00000000
T77B0 054:243.486 JLINK_ReadReg(R12)
T77B0 054:243.490 - 0.006ms returns 0x00002C79
T77B0 054:243.496 JLINK_ReadReg(R13 (SP))
T77B0 054:243.501 - 0.007ms returns 0x24022290
T77B0 054:243.506 JLINK_ReadReg(R14)
T77B0 054:243.511 - 0.006ms returns 0x08003537
T77B0 054:243.517 JLINK_ReadReg(R15 (PC))
T77B0 054:243.522 - 0.007ms returns 0x08006B1C
T77B0 054:243.527 JLINK_ReadReg(XPSR)
T77B0 054:243.532 - 0.007ms returns 0x21000000
T77B0 054:243.538 JLINK_ReadReg(MSP)
T77B0 054:243.542 - 0.006ms returns 0x24022290
T77B0 054:243.548 JLINK_ReadReg(PSP)
T77B0 054:243.553 - 0.010ms returns 0x00000000
T77B0 054:243.571 JLINK_ReadReg(CFBP)
T77B0 054:243.576 - 0.007ms returns 0x04000000
T77B0 054:243.582 JLINK_ReadReg(FPSCR)
T77B0 054:246.381 - 2.811ms returns 0x00000000
T77B0 054:246.399 JLINK_ReadReg(FPS0)
T77B0 054:246.407 - 0.009ms returns 0x00000000
T77B0 054:246.412 JLINK_ReadReg(FPS1)
T77B0 054:246.417 - 0.007ms returns 0x00000002
T77B0 054:246.423 JLINK_ReadReg(FPS2)
T77B0 054:246.428 - 0.006ms returns 0x4E3EBC20
T77B0 054:246.433 JLINK_ReadReg(FPS3)
T77B0 054:246.438 - 0.007ms returns 0x17D78400
T77B0 054:246.444 JLINK_ReadReg(FPS4)
T77B0 054:246.448 - 0.006ms returns 0x4DBEBC20
T77B0 054:246.454 JLINK_ReadReg(FPS5)
T77B0 054:246.458 - 0.006ms returns 0x3F800000
T77B0 054:246.464 JLINK_ReadReg(FPS6)
T77B0 054:246.469 - 0.007ms returns 0x00000000
T77B0 054:246.474 JLINK_ReadReg(FPS7)
T77B0 054:246.479 - 0.006ms returns 0x00000000
T77B0 054:246.484 JLINK_ReadReg(FPS8)
T77B0 054:246.489 - 0.006ms returns 0x00000000
T77B0 054:246.494 JLINK_ReadReg(FPS9)
T77B0 054:246.499 - 0.007ms returns 0x00000000
T77B0 054:246.505 JLINK_ReadReg(FPS10)
T77B0 054:246.509 - 0.006ms returns 0x00000000
T77B0 054:246.515 JLINK_ReadReg(FPS11)
T77B0 054:246.519 - 0.006ms returns 0x00000000
T77B0 054:246.525 JLINK_ReadReg(FPS12)
T77B0 054:246.529 - 0.006ms returns 0x00000000
T77B0 054:246.549 JLINK_ReadReg(FPS13)
T77B0 054:246.582 - 0.036ms returns 0x00000000
T77B0 054:246.592 JLINK_ReadReg(FPS14)
T77B0 054:246.597 - 0.008ms returns 0x00000000
T77B0 054:246.603 JLINK_ReadReg(FPS15)
T77B0 054:246.607 - 0.007ms returns 0xFFFFFFFF
T77B0 054:246.613 JLINK_ReadReg(FPS16)
T77B0 054:246.618 - 0.007ms returns 0x00000000
T77B0 054:246.623 JLINK_ReadReg(FPS17)
T77B0 054:246.628 - 0.007ms returns 0x00000000
T77B0 054:246.647 JLINK_ReadReg(FPS18)
T77B0 054:246.659 - 0.015ms returns 0x00000000
T77B0 054:246.665 JLINK_ReadReg(FPS19)
